Freq.	V(vzl1)*Ix(x7:B)	V(vzl2)*Ix(x3:B)	V(vzl3)*Ix(x11:B)
3.00000000000000e+005	(-1.78031502508248e+001dB,8.39556544700971e+001°)	(-1.78200796328868e+001dB,8.18285582271826e+001°)	(-1.78567961323924e+001dB,7.45560270123031e+001°)
3.06987897684226e+005	(-1.68949257080984e+001dB,8.07334977337152e+001°)	(-1.69140482704959e+001dB,7.85786550214826e+001°)	(-1.69612564336704e+001dB,7.12113004973276e+001°)
3.14138564415270e+005	(-1.59557260416536e+001dB,7.73643662358110e+001°)	(-1.59772757065690e+001dB,7.51765335658466e+001°)	(-1.60359076920161e+001dB,6.76971220007646e+001°)
3.21455791571282e+005	(-1.49829052327452e+001dB,7.38370215323095e+001°)	(-1.50071645715264e+001dB,7.16103107172523e+001°)	(-1.50783568834747e+001dB,6.39995365102326e+001°)
3.28943458842955e+005	(-1.39734501998721e+001dB,7.01388425405411e+001°)	(-1.40007623943358e+001dB,6.78665944782168e+001°)	(-1.40859047722323e+001dB,6.01026951101690e+001°)
3.36605536290589e+005	(-1.29239025978571e+001dB,6.62555344339340e+001°)	(-1.29546871954954e+001dB,6.39301619282394e+001°)	(-1.30554867178507e+001dB,5.59884443960807e+001°)
3.44446086449065e+005	(-1.18302588868295e+001dB,6.21707421452891e+001°)	(-1.18650328237524e+001dB,5.97835324128514e+001°)	(-1.19835989830652e+001dB,5.16357870113591e+001°)
3.52469266481859e+005	(-1.06878414817175e+001dB,5.78655276380310e+001°)	(-1.07272475378129e+001dB,5.54063918086885e+001°)	(-1.08662066532867e+001dB,4.70201618431186e+001°)
3.60679330385224e+005	(-9.49113105386927e+000dB,5.33176493135196e+001°)	(-9.53597697965784e+000dB,5.07748015369130e+001°)	(-9.69862831756384e+000dB,4.21124681790414e+001°)
3.69080631243714e+005	(-8.23354613654745e+000dB,4.85005488370485e+001°)	(-8.28485940160542e+000dB,4.58600909733578e+001°)	(-8.47539163281470e+000dB,3.68777208168533e+001°)
3.77677623538250e+005	(-6.90715052810234e+000dB,4.33818968379574e+001°)	(-6.96625642839352e+000dB,4.06272753308938e+001°)	(-7.19005304429252e+000dB,3.12731647431590e+001°)
3.86474865507940e+005	(-5.50226077313993e+000dB,3.79214591670729e+001°)	(-5.57089629830908e+000dB,3.50327475408001e+001°)	(-5.83497490708915e+000dB,2.52455851219349e+001°)
3.95477021566922e+005	(-4.00691408336110e+000dB,3.20678914519539e+001°)	(-4.08739797540372e+000dB,2.90208338981562e+001°)	(-4.40105560915343e+000dB,1.87273980444413e+001°)
4.04688864777496e+005	(-2.40613999818445e+000dB,2.57537973709261e+001°)	(-2.50163370075433e+000dB,2.25185259911429e+001°)	(-2.87741675089324e+000dB,1.16308603832737e+001°)
4.14115279380865e+005	(-6.80955726286886e-001dB,1.88878873950282e+001°)	(-7.95876149582006e-001dB,1.54272020012414e+001°)	(-1.25107478943729e+000dB,3.83932548892009e+000°)
4.23761263386826e+005	(1.19302287004961e+000dB,1.13421261410383e+001°)	(1.05232786725730e+000dB,7.60922054839157e+000°)	(4.93316177616753e-001dB,-4.80621796517547e+000°)
4.33631931223778e+005	(3.24748115426901e+000dB,2.92987628736264e+000°)	(3.07158486334704e+000dB,-1.13452027039226e+000°)	(2.37341775992000e+000dB,-1.45282281142899e+001°)
4.43732516450462e+005	(5.52389021238985e+000dB,-6.63284101909181e+000°)	(5.29825511715901e+000dB,-1.11035198687891e+001°)	(4.40826655059485e+000dB,-2.56460061047709e+001°)
4.54068374530862e+005	(8.07628618969396e+000dB,-1.77992062149409e+001°)	(7.77751585576781e+000dB,-2.27677473624595e+001°)	(6.61497544811147e+000dB,-3.86284106727883e+001°)
4.64644985673744e+005	(1.09724612058307e+001dB,-3.13311416220899e+001°)	(1.05611560107113e+001dB,-3.68976379064813e+001°)	(8.99951051841686e+000dB,-5.41735983350127e+001°)
4.75467957738334e+005	(1.42852592526906e+001dB,-4.85792356210207e+001°)	(1.36924615374114e+001dB,-5.48060108733645e+001°)	(1.15332641244094e+001dB,-7.33115524751899e+001°)
4.86543029207679e+005	(1.80404107680303e+001dB,-7.20270291247893e+001°)	(1.71457534692082e+001dB,-7.87548265794346e+001°)	(1.40991231325740e+001dB,-9.74578133928341e+001°)
4.97876072231268e+005	(2.19996640864028e+001dB,-1.06028008769042e+002°)	(2.06282154111503e+001dB,-1.12281614374639e+002°)	(1.63920839851715e+001dB,-1.28113989681864e+002°)
5.09473095738523e+005	(2.50465018884769e+001dB,-1.55420337445079e+002°)	(2.31539656875470e+001dB,-1.58449550418872e+002°)	(1.78392532452407e+001dB,-1.65541417834593e+002°)
5.21340248624812e+005	(2.50642213018335e+001dB,1.44942529951543e+002°)	(2.31591783864423e+001dB,1.47569994109032e+002°)	(1.78185086138089e+001dB,1.53385680064300e+002°)
5.33483823011676e+005	(2.18548470417369e+001dB,9.34982065169343e+001°)	(2.04840638942881e+001dB,9.95260521688574e+001°)	(1.62432981958771e+001dB,1.14514959957686e+002°)
5.45910257582994e+005	(1.75058855319962e+001dB,5.74344471793410e+001°)	(1.66394718887012e+001dB,6.39128858550719e+001°)	(1.36630444829381e+001dB,8.18375025115302e+001°)
5.58626140998860e+005	(1.32818111482441e+001dB,3.23312307135801e+001°)	(1.27303721804301e+001dB,3.82022843940538e+001°)	(1.06946132256126e+001dB,5.56903774536976e+001°)
5.71638215388973e+005	(9.47950050714134e+000dB,1.36145764736429e+001°)	(9.11239877338878e+000dB,1.87299363544656e+001°)	(7.69704728193367e+000dB,3.46948204750480e+001°)
5.84953379927413e+005	(6.08408699690483e+000dB,-1.37034312309337e+000°)	(5.82799030422777e+000dB,3.07820661599234e+000°)	(4.81608498302093e+000dB,1.73788295103456e+001°)
5.98578694490663e+005	(3.02094051804019e+000dB,-1.40577731521889e+001°)	(2.83494121816714e+000dB,-1.01539570442852e+001°)	(2.09092578596759e+000dB,2.64031896715213e+000°)
6.00000000000000e+005	(2.72132908097055e+000dB,-1.52694516441989e+001°)	(2.54099758698072e+000dB,-1.14152782259667e+001°)	(1.81912289352178e+000dB,1.23632828375393e+000°)
